!Agilent Technologies,E5061B,MY49304363,A.02.22
!Date: Fri Nov 10 12:53:30 2023
!Data & Calibration Information:
!Freq	S11:SOLT1(ON)
# Hz S RI R 50
1000000.000	9.983240e-001	-8.355523e-003
1061875.000	9.984491e-001	-9.022994e-003
1123750.000	9.978667e-001	-9.763714e-003
1185625.000	9.981123e-001	-1.041294e-002
1247500.000	9.980758e-001	-1.056948e-002
1309375.000	9.986887e-001	-1.197373e-002
1371250.000	9.981197e-001	-1.332652e-002
1433125.000	9.982654e-001	-1.280623e-002
1495000.000	9.989158e-001	-1.246637e-002
1556875.000	9.995218e-001	-1.349592e-002
1618750.000	1.000031e+000	-1.238284e-002
1680625.000	9.990808e-001	-1.380197e-002
1742500.000	9.988927e-001	-1.493569e-002
1804375.000	9.982900e-001	-1.538833e-002
1866250.000	9.985194e-001	-1.639006e-002
1928125.000	9.987559e-001	-1.682751e-002
1990000.000	9.988954e-001	-1.714600e-002
2051875.000	9.983132e-001	-1.723930e-002
2113750.000	9.980626e-001	-1.795647e-002
2175625.000	9.991485e-001	-1.902951e-002
2237500.000	9.979862e-001	-1.791379e-002
2299375.000	9.987133e-001	-1.937138e-002
2361250.000	9.987352e-001	-1.864528e-002
2423125.000	9.990335e-001	-2.075077e-002
2485000.000	9.989643e-001	-2.105170e-002
2546875.000	9.988788e-001	-2.132670e-002
2608750.000	9.983283e-001	-2.180286e-002
2670625.000	9.979912e-001	-2.248298e-002
2732500.000	9.983295e-001	-2.255924e-002
2794375.000	9.988253e-001	-2.355328e-002
2856250.000	9.983549e-001	-2.362873e-002
2918125.000	9.986695e-001	-2.389997e-002
2980000.000	9.987880e-001	-2.486072e-002
3041875.000	9.984721e-001	-2.480338e-002
3103750.000	9.993458e-001	-2.516860e-002
3165625.000	9.986687e-001	-2.646592e-002
3227500.000	9.987163e-001	-2.693751e-002
3289375.000	9.984605e-001	-2.739591e-002
3351250.000	9.986569e-001	-2.799100e-002
3413125.000	9.985754e-001	-2.863401e-002
3475000.000	9.986557e-001	-2.919259e-002
3536875.000	9.986163e-001	-2.948299e-002
3598750.000	9.987882e-001	-3.013636e-002
3660625.000	9.986097e-001	-3.085834e-002
3722500.000	9.986215e-001	-3.116837e-002
3784375.000	9.985844e-001	-3.162990e-002
3846250.000	9.987083e-001	-3.209068e-002
3908125.000	9.986522e-001	-3.286088e-002
3970000.000	9.986778e-001	-3.338721e-002
4031875.000	9.986640e-001	-3.383772e-002
4093750.000	9.988708e-001	-3.414006e-002
4155625.000	9.988225e-001	-3.509745e-002
4217500.000	9.986156e-001	-3.585649e-002
4279375.000	9.984601e-001	-3.600783e-002
4341250.000	9.985201e-001	-3.643553e-002
4403125.000	9.986182e-001	-3.749414e-002
4465000.000	9.986424e-001	-3.748597e-002
4526875.000	9.987123e-001	-3.787075e-002
4588750.000	9.983163e-001	-3.847641e-002
4650625.000	9.984875e-001	-3.915771e-002
4712500.000	9.984130e-001	-4.002977e-002
4774375.000	9.984374e-001	-4.047620e-002
4836250.000	9.984170e-001	-4.093510e-002
4898125.000	9.982606e-001	-4.155735e-002
4960000.000	9.981531e-001	-4.181039e-002
5021875.000	9.982296e-001	-4.235015e-002
5083750.000	9.983290e-001	-4.271456e-002
5145625.000	9.981469e-001	-4.355118e-002
5207500.000	9.980547e-001	-4.392856e-002
5269375.000	9.979987e-001	-4.471713e-002
5331250.000	9.982419e-001	-4.513333e-002
5393125.000	9.978938e-001	-4.584487e-002
5455000.000	9.980559e-001	-4.655111e-002
5516875.000	9.977221e-001	-4.690562e-002
5578750.000	9.980994e-001	-4.721938e-002
5640625.000	9.979809e-001	-4.794399e-002
5702500.000	9.979588e-001	-4.868420e-002
5764375.000	9.979250e-001	-4.907099e-002
5826250.000	9.977374e-001	-4.950660e-002
5888125.000	9.980377e-001	-4.996783e-002
5950000.000	9.976984e-001	-5.056212e-002
6011875.000	9.978108e-001	-5.093289e-002
6073750.000	9.978430e-001	-5.132357e-002
6135625.000	9.978813e-001	-5.170753e-002
6197500.000	9.977711e-001	-5.235007e-002
6259375.000	9.975622e-001	-5.335985e-002
6321250.000	9.978681e-001	-5.358112e-002
6383125.000	9.978079e-001	-5.412124e-002
6445000.000	9.975823e-001	-5.483608e-002
6506875.000	9.975986e-001	-5.540835e-002
6568750.000	9.976862e-001	-5.579322e-002
6630625.000	9.976568e-001	-5.622434e-002
6692500.000	9.975618e-001	-5.674225e-002
6754375.000	9.974676e-001	-5.759391e-002
6816250.000	9.973903e-001	-5.776413e-002
6878125.000	9.974992e-001	-5.826359e-002
6940000.000	9.975936e-001	-5.882116e-002
7001875.000	9.974225e-001	-5.940198e-002
7063750.000	9.974177e-001	-5.964771e-002
7125625.000	9.973190e-001	-6.031786e-002
7187500.000	9.975016e-001	-6.069310e-002
7249375.000	9.972835e-001	-6.149464e-002
7311250.000	9.972594e-001	-6.223090e-002
7373125.000	9.972665e-001	-6.252751e-002
7435000.000	9.973386e-001	-6.320153e-002
7496875.000	9.972655e-001	-6.357080e-002
7558750.000	9.970380e-001	-6.450872e-002
7620625.000	9.971337e-001	-6.497651e-002
7682500.000	9.970035e-001	-6.536191e-002
7744375.000	9.969084e-001	-6.586174e-002
7806250.000	9.969424e-001	-6.662850e-002
7868125.000	9.966701e-001	-6.744181e-002
7930000.000	9.969560e-001	-6.813740e-002
7991875.000	9.968887e-001	-6.834573e-002
8053750.000	9.967710e-001	-6.909602e-002
8115625.000	9.964870e-001	-6.974170e-002
8177500.000	9.964883e-001	-7.011824e-002
8239375.000	9.964670e-001	-7.066617e-002
8301250.000	9.965038e-001	-7.114889e-002
8363125.000	9.962323e-001	-7.187931e-002
8425000.000	9.961509e-001	-7.248791e-002
8486875.000	9.962735e-001	-7.288152e-002
8548750.000	9.963158e-001	-7.331608e-002
8610625.000	9.960162e-001	-7.396129e-002
8672500.000	9.958689e-001	-7.451470e-002
8734375.000	9.962053e-001	-7.491681e-002
8796250.000	9.961553e-001	-7.544647e-002
8858125.000	9.958772e-001	-7.576872e-002
8920000.000	9.956599e-001	-7.640909e-002
8981875.000	9.957153e-001	-7.704187e-002
9043750.000	9.957132e-001	-7.738040e-002
9105625.000	9.958867e-001	-7.807645e-002
9167500.000	9.956067e-001	-7.869942e-002
9229375.000	9.954757e-001	-7.924186e-002
9291250.000	9.956246e-001	-7.977982e-002
9353125.000	9.955414e-001	-8.000934e-002
9415000.000	9.951651e-001	-8.086303e-002
9476875.000	9.951618e-001	-8.179763e-002
9538750.000	9.952878e-001	-8.207969e-002
9600625.000	9.951560e-001	-8.262483e-002
9662500.000	9.952274e-001	-8.311508e-002
9724375.000	9.948782e-001	-8.372829e-002
9786250.000	9.950907e-001	-8.415660e-002
9848125.000	9.949076e-001	-8.470072e-002
9910000.000	9.950911e-001	-8.529374e-002
9971875.000	9.947876e-001	-8.575463e-002
10033750.000	9.946385e-001	-8.658305e-002
10095625.000	9.948333e-001	-8.694449e-002
10157500.000	9.946550e-001	-8.752605e-002
10219375.000	9.948640e-001	-8.801827e-002
10281250.000	9.945561e-001	-8.870580e-002
10343125.000	9.945078e-001	-8.920612e-002
10405000.000	9.946756e-001	-8.966848e-002
10466875.000	9.948197e-001	-9.020323e-002
10528750.000	9.944579e-001	-9.070055e-002
10590625.000	9.940583e-001	-9.155794e-002
10652500.000	9.941903e-001	-9.200625e-002
10714375.000	9.944431e-001	-9.250752e-002
10776250.000	9.943649e-001	-9.296737e-002
10838125.000	9.939318e-001	-9.377705e-002
10900000.000	9.939144e-001	-9.431113e-002
10961875.000	9.939820e-001	-9.476010e-002
11023750.000	9.940649e-001	-9.525829e-002
11085625.000	9.938856e-001	-9.610872e-002
11147500.000	9.936188e-001	-9.670310e-002
11209375.000	9.935404e-001	-9.723352e-002
11271250.000	9.935283e-001	-9.782487e-002
11333125.000	9.935884e-001	-9.843426e-002
11395000.000	9.932013e-001	-9.914983e-002
11456875.000	9.931267e-001	-9.959447e-002
11518750.000	9.931822e-001	-1.001080e-001
11580625.000	9.933852e-001	-1.008437e-001
11642500.000	9.930293e-001	-1.014867e-001
11704375.000	9.926357e-001	-1.021069e-001
11766250.000	9.928580e-001	-1.022315e-001
11828125.000	9.928508e-001	-1.029055e-001
11890000.000	9.926636e-001	-1.032724e-001
11951875.000	9.923651e-001	-1.041377e-001
12013750.000	9.923266e-001	-1.046822e-001
12075625.000	9.923177e-001	-1.053065e-001
12137500.000	9.924051e-001	-1.057065e-001
12199375.000	9.922161e-001	-1.064050e-001
12261250.000	9.919887e-001	-1.071076e-001
12323125.000	9.919037e-001	-1.075931e-001
12385000.000	9.920473e-001	-1.082551e-001
12446875.000	9.919760e-001	-1.087806e-001
12508750.000	9.913703e-001	-1.097340e-001
12570625.000	9.913918e-001	-1.102423e-001
12632500.000	9.915654e-001	-1.108198e-001
12694375.000	9.915429e-001	-1.111806e-001
12756250.000	9.914225e-001	-1.117265e-001
12818125.000	9.911645e-001	-1.125594e-001
12880000.000	9.913239e-001	-1.128386e-001
12941875.000	9.913374e-001	-1.134085e-001
13003750.000	9.913686e-001	-1.140925e-001
13065625.000	9.909747e-001	-1.146473e-001
13127500.000	9.909259e-001	-1.152694e-001
13189375.000	9.908605e-001	-1.157884e-001
13251250.000	9.909909e-001	-1.162078e-001
13313125.000	9.910590e-001	-1.168787e-001
13375000.000	9.905555e-001	-1.175350e-001
13436875.000	9.904950e-001	-1.181164e-001
13498750.000	9.905411e-001	-1.187254e-001
13560625.000	9.906581e-001	-1.192945e-001
13622500.000	9.905065e-001	-1.198400e-001
13684375.000	9.900886e-001	-1.205597e-001
13746250.000	9.901559e-001	-1.212096e-001
13808125.000	9.901235e-001	-1.216776e-001
13870000.000	9.903718e-001	-1.223736e-001
13931875.000	9.898649e-001	-1.228358e-001
13993750.000	9.898187e-001	-1.235020e-001
14055625.000	9.897997e-001	-1.240218e-001
14117500.000	9.897546e-001	-1.245725e-001
14179375.000	9.897569e-001	-1.252384e-001
14241250.000	9.892569e-001	-1.258455e-001
14303125.000	9.892801e-001	-1.264995e-001
14365000.000	9.892788e-001	-1.271864e-001
14426875.000	9.893795e-001	-1.276732e-001
14488750.000	9.890704e-001	-1.282885e-001
14550625.000	9.887475e-001	-1.290554e-001
14612500.000	9.884925e-001	-1.295845e-001
14674375.000	9.885895e-001	-1.301356e-001
14736250.000	9.886434e-001	-1.308857e-001
14798125.000	9.884535e-001	-1.314870e-001
14860000.000	9.880735e-001	-1.320955e-001
14921875.000	9.878815e-001	-1.326242e-001
14983750.000	9.881220e-001	-1.331722e-001
15045625.000	9.882187e-001	-1.339633e-001
15107500.000	9.875757e-001	-1.346078e-001
15169375.000	9.875157e-001	-1.350115e-001
15231250.000	9.874767e-001	-1.357489e-001
15293125.000	9.874836e-001	-1.362279e-001
15355000.000	9.873758e-001	-1.370517e-001
15416875.000	9.869213e-001	-1.378300e-001
15478750.000	9.868526e-001	-1.383394e-001
15540625.000	9.869583e-001	-1.388273e-001
15602500.000	9.869881e-001	-1.393753e-001
15664375.000	9.864825e-001	-1.403199e-001
15726250.000	9.864784e-001	-1.408989e-001
15788125.000	9.862342e-001	-1.414836e-001
15850000.000	9.864029e-001	-1.422150e-001
15911875.000	9.861493e-001	-1.425612e-001
15973750.000	9.857274e-001	-1.433856e-001
16035625.000	9.857933e-001	-1.439935e-001
16097500.000	9.855531e-001	-1.446139e-001
16159375.000	9.858090e-001	-1.451864e-001
16221250.000	9.853789e-001	-1.458510e-001
16283125.000	9.851311e-001	-1.464448e-001
16345000.000	9.850221e-001	-1.472192e-001
16406875.000	9.852034e-001	-1.477154e-001
16468750.000	9.851894e-001	-1.484578e-001
16530625.000	9.848464e-001	-1.491714e-001
16592500.000	9.847322e-001	-1.497621e-001
16654375.000	9.846858e-001	-1.504542e-001
16716250.000	9.846411e-001	-1.510524e-001
16778125.000	9.847192e-001	-1.516389e-001
16840000.000	9.842581e-001	-1.522787e-001
16901875.000	9.841964e-001	-1.531162e-001
16963750.000	9.842048e-001	-1.538920e-001
17025625.000	9.842666e-001	-1.543979e-001
17087500.000	9.839427e-001	-1.551685e-001
17149375.000	9.836939e-001	-1.557074e-001
17211250.000	9.836700e-001	-1.562318e-001
17273125.000	9.838232e-001	-1.566922e-001
17335000.000	9.835983e-001	-1.574455e-001
17396875.000	9.831174e-001	-1.581562e-001
17458750.000	9.829493e-001	-1.587113e-001
17520625.000	9.829403e-001	-1.593173e-001
17582500.000	9.829636e-001	-1.600841e-001
17644375.000	9.827445e-001	-1.608163e-001
17706250.000	9.824188e-001	-1.612845e-001
17768125.000	9.822101e-001	-1.618437e-001
17830000.000	9.821623e-001	-1.626623e-001
17891875.000	9.823274e-001	-1.632981e-001
17953750.000	9.818814e-001	-1.639708e-001
18015625.000	9.815240e-001	-1.645403e-001
18077500.000	9.813994e-001	-1.654444e-001
18139375.000	9.815178e-001	-1.660736e-001
18201250.000	9.813683e-001	-1.666653e-001
18263125.000	9.808208e-001	-1.676876e-001
18325000.000	9.806912e-001	-1.683880e-001
18386875.000	9.808455e-001	-1.690762e-001
18448750.000	9.804786e-001	-1.696719e-001
18510625.000	9.804911e-001	-1.704636e-001
18572500.000	9.799780e-001	-1.710805e-001
18634375.000	9.797445e-001	-1.718138e-001
18696250.000	9.798324e-001	-1.722978e-001
18758125.000	9.799003e-001	-1.728600e-001
18820000.000	9.793984e-001	-1.737106e-001
18881875.000	9.791704e-001	-1.743054e-001
18943750.000	9.791008e-001	-1.749929e-001
19005625.000	9.788880e-001	-1.756016e-001
19067500.000	9.788811e-001	-1.763663e-001
19129375.000	9.782916e-001	-1.771475e-001
19191250.000	9.781194e-001	-1.777372e-001
19253125.000	9.781828e-001	-1.787123e-001
19315000.000	9.782887e-001	-1.793023e-001
19376875.000	9.778367e-001	-1.799543e-001
19438750.000	9.774613e-001	-1.807676e-001
19500625.000	9.773817e-001	-1.814602e-001
19562500.000	9.773197e-001	-1.820021e-001
19624375.000	9.772993e-001	-1.825332e-001
19686250.000	9.767694e-001	-1.833726e-001
19748125.000	9.764422e-001	-1.841940e-001
19810000.000	9.763832e-001	-1.847877e-001
19871875.000	9.762581e-001	-1.853723e-001
19933750.000	9.762555e-001	-1.862906e-001
19995625.000	9.757995e-001	-1.867679e-001
20057500.000	9.756480e-001	-1.876643e-001
20119375.000	9.756594e-001	-1.883906e-001
20181250.000	9.755024e-001	-1.891996e-001
20243125.000	9.752691e-001	-1.898852e-001
20305000.000	9.748982e-001	-1.904643e-001
20366875.000	9.746867e-001	-1.912742e-001
20428750.000	9.748734e-001	-1.919360e-001
20490625.000	9.746627e-001	-1.927796e-001
20552500.000	9.740266e-001	-1.934516e-001
20614375.000	9.739580e-001	-1.941083e-001
20676250.000	9.737009e-001	-1.948981e-001
20738125.000	9.739061e-001	-1.958655e-001
20800000.000	9.735431e-001	-1.965234e-001
20861875.000	9.729113e-001	-1.972487e-001
20923750.000	9.729005e-001	-1.980220e-001
20985625.000	9.729277e-001	-1.987092e-001
21047500.000	9.727721e-001	-1.996360e-001
21109375.000	9.723395e-001	-2.001459e-001
21171250.000	9.718094e-001	-2.009102e-001
21233125.000	9.718255e-001	-2.017195e-001
21295000.000	9.718227e-001	-2.026457e-001
21356875.000	9.716469e-001	-2.032909e-001
21418750.000	9.709695e-001	-2.041511e-001
21480625.000	9.707570e-001	-2.049294e-001
21542500.000	9.706860e-001	-2.056647e-001
21604375.000	9.706442e-001	-2.063968e-001
21666250.000	9.703658e-001	-2.071783e-001
21728125.000	9.698712e-001	-2.079168e-001
21790000.000	9.696999e-001	-2.086991e-001
21851875.000	9.696932e-001	-2.095122e-001
21913750.000	9.694267e-001	-2.104589e-001
21975625.000	9.687794e-001	-2.111212e-001
22037500.000	9.685505e-001	-2.119713e-001
22099375.000	9.684677e-001	-2.128074e-001
22161250.000	9.684063e-001	-2.135732e-001
22223125.000	9.682255e-001	-2.141891e-001
22285000.000	9.675969e-001	-2.150506e-001
22346875.000	9.673728e-001	-2.159116e-001
22408750.000	9.672764e-001	-2.166180e-001
22470625.000	9.672135e-001	-2.173066e-001
22532500.000	9.666929e-001	-2.182748e-001
22594375.000	9.660377e-001	-2.189835e-001
22656250.000	9.658765e-001	-2.196937e-001
22718125.000	9.658108e-001	-2.204588e-001
22780000.000	9.657550e-001	-2.213570e-001
22841875.000	9.652425e-001	-2.221022e-001
22903750.000	9.648338e-001	-2.227739e-001
22965625.000	9.646283e-001	-2.237357e-001
23027500.000	9.645682e-001	-2.245056e-001
23089375.000	9.644475e-001	-2.253739e-001
23151250.000	9.639913e-001	-2.260646e-001
23213125.000	9.635394e-001	-2.270989e-001
23275000.000	9.634963e-001	-2.278944e-001
23336875.000	9.632903e-001	-2.288118e-001
23398750.000	9.630875e-001	-2.296809e-001
23460625.000	9.625512e-001	-2.303193e-001
23522500.000	9.622941e-001	-2.311725e-001
23584375.000	9.621333e-001	-2.320257e-001
23646250.000	9.621753e-001	-2.329404e-001
23708125.000	9.615469e-001	-2.337600e-001
23770000.000	9.609652e-001	-2.345525e-001
23831875.000	9.609954e-001	-2.354568e-001
23893750.000	9.607677e-001	-2.362920e-001
23955625.000	9.604865e-001	-2.372671e-001
24017500.000	9.599942e-001	-2.380596e-001
24079375.000	9.594712e-001	-2.388902e-001
24141250.000	9.593502e-001	-2.398412e-001
24203125.000	9.591986e-001	-2.407982e-001
24265000.000	9.590711e-001	-2.416565e-001
24326875.000	9.584328e-001	-2.424877e-001
24388750.000	9.581458e-001	-2.435147e-001
24450625.000	9.575696e-001	-2.441737e-001
24512500.000	9.576419e-001	-2.451737e-001
24574375.000	9.574684e-001	-2.461184e-001
24636250.000	9.568761e-001	-2.469346e-001
24698125.000	9.563191e-001	-2.480079e-001
24760000.000	9.561975e-001	-2.489242e-001
24821875.000	9.559536e-001	-2.496791e-001
24883750.000	9.554307e-001	-2.505023e-001
24945625.000	9.548475e-001	-2.515317e-001
25007500.000	9.543717e-001	-2.525342e-001
25069375.000	9.541171e-001	-2.532441e-001
25131250.000	9.539713e-001	-2.542315e-001
25193125.000	9.534722e-001	-2.552214e-001
25255000.000	9.530726e-001	-2.559926e-001
25316875.000	9.525324e-001	-2.571576e-001
25378750.000	9.521975e-001	-2.579519e-001
25440625.000	9.519106e-001	-2.590010e-001
25502500.000	9.516618e-001	-2.599999e-001
25564375.000	9.510582e-001	-2.607846e-001
25626250.000	9.505658e-001	-2.616711e-001
25688125.000	9.501194e-001	-2.628620e-001
25750000.000	9.497815e-001	-2.636069e-001
25811875.000	9.497936e-001	-2.646972e-001
25873750.000	9.489120e-001	-2.655348e-001
25935625.000	9.482080e-001	-2.666731e-001
25997500.000	9.479400e-001	-2.675457e-001
26059375.000	9.478418e-001	-2.685264e-001
26121250.000	9.474847e-001	-2.695571e-001
26183125.000	9.467512e-001	-2.703485e-001
26245000.000	9.462371e-001	-2.712622e-001
26306875.000	9.458582e-001	-2.725417e-001
26368750.000	9.455132e-001	-2.734672e-001
26430625.000	9.451264e-001	-2.744508e-001
26492500.000	9.445605e-001	-2.754679e-001
26554375.000	9.438847e-001	-2.762647e-001
26616250.000	9.435131e-001	-2.773598e-001
26678125.000	9.432385e-001	-2.783193e-001
26740000.000	9.429598e-001	-2.794325e-001
26801875.000	9.423592e-001	-2.805362e-001
26863750.000	9.417633e-001	-2.814482e-001
26925625.000	9.413210e-001	-2.824014e-001
26987500.000	9.409599e-001	-2.834918e-001
27049375.000	9.405856e-001	-2.846950e-001
27111250.000	9.399347e-001	-2.854584e-001
27173125.000	9.392442e-001	-2.865415e-001
27235000.000	9.389884e-001	-2.875540e-001
27296875.000	9.385940e-001	-2.886767e-001
27358750.000	9.382733e-001	-2.897950e-001
27420625.000	9.373485e-001	-2.906711e-001
27482500.000	9.367776e-001	-2.917158e-001
27544375.000	9.364469e-001	-2.929561e-001
27606250.000	9.361154e-001	-2.940623e-001
27668125.000	9.356405e-001	-2.952967e-001
27730000.000	9.347473e-001	-2.962483e-001
27791875.000	9.339727e-001	-2.972348e-001
27853750.000	9.337395e-001	-2.984711e-001
27915625.000	9.332435e-001	-2.997230e-001
27977500.000	9.326673e-001	-3.006296e-001
28039375.000	9.318722e-001	-3.019328e-001
28101250.000	9.312183e-001	-3.030188e-001
28163125.000	9.307756e-001	-3.041136e-001
28225000.000	9.304002e-001	-3.052141e-001
28286875.000	9.298927e-001	-3.063532e-001
28348750.000	9.289199e-001	-3.075242e-001
28410625.000	9.283151e-001	-3.088099e-001
28472500.000	9.278048e-001	-3.098417e-001
28534375.000	9.272843e-001	-3.109780e-001
28596250.000	9.267780e-001	-3.121271e-001
28658125.000	9.258581e-001	-3.133243e-001
28720000.000	9.250706e-001	-3.144142e-001
28781875.000	9.247085e-001	-3.156112e-001
28843750.000	9.240558e-001	-3.167725e-001
28905625.000	9.235552e-001	-3.178279e-001
28967500.000	9.224503e-001	-3.190120e-001
29029375.000	9.217930e-001	-3.204238e-001
29091250.000	9.211712e-001	-3.214568e-001
29153125.000	9.206938e-001	-3.227866e-001
29215000.000	9.202371e-001	-3.240854e-001
29276875.000	9.189874e-001	-3.252088e-001
29338750.000	9.182873e-001	-3.263529e-001
29400625.000	9.175083e-001	-3.276154e-001
29462500.000	9.170536e-001	-3.289379e-001
29524375.000	9.163470e-001	-3.301692e-001
29586250.000	9.152611e-001	-3.312562e-001
29648125.000	9.144029e-001	-3.324724e-001
